!Keysight Technologies,M9372A,MY54321100,A.14.10.13
!Date: Tuesday, March 10, 2026 15:49:20
!Correction: S11(C* 2-Port  ) 
!S21(C* 2-Port  ) 
!S12(C* 2-Port  ) 
!S22(C* 2-Port  ) 
!S2P File: Measurement: :
# Hz S  dB   R 50
300000 -29.906427 105.09745 0.050094936 -1.8822478 0.050494619 -1.8811284 -30.071537 101.75936
15298500 -13.132508 65.914772 -2.8752027 -2.1685216 -3.1321735 -3.707051 -12.881235 80.451912
30297000 -18.136932 -15.979131 -2.1485381 -4.7848248 -2.4340127 -4.040369 -22.308668 43.727032
45295500 -14.429852 -38.415783 -1.693821 -6.9456835 -1.6912012 -7.0105829 -14.974458 -15.746637
60294000 -14.021525 -46.624359 -1.7958519 -8.9802656 -1.8130637 -8.9795122 -14.960525 -21.49575
75292500 -14.029912 -57.658192 -1.7657832 -11.183316 -1.7726227 -11.132151 -14.931841 -27.088339
90291000 -12.972402 -71.316475 -1.6150626 -13.527359 -1.6421938 -13.39266 -14.826283 -33.21896
105289500 -12.816771 -78.525009 -1.6676155 -15.532152 -1.7010968 -15.564801 -14.739993 -38.61908
120288000 -12.494704 -86.986435 -1.6064751 -17.803577 -1.636657 -17.879332 -14.625284 -44.135311
135286500 -11.812049 -96.178459 -1.4926802 -20.101906 -1.5014369 -20.095114 -14.41643 -51.266731
150285000 -11.904994 -104.30714 -1.3918875 -22.344847 -1.4258862 -22.252991 -14.393192 -60.424553
165283500 -11.65053 -102.85529 -1.5992677 -26.994287 -1.6324781 -26.927214 -15.660921 -53.856434
180282000 -10.804307 -112.15105 -1.5085449 -27.937786 -1.5114443 -27.864698 -14.480966 -62.572189
195280500 -10.947001 -115.41898 -1.5121078 -30.339985 -1.4487978 -29.986126 -15.245464 -64.923882
210279000 -10.988123 -122.8755 -1.4593498 -32.77248 -1.3907354 -32.567883 -15.244297 -70.241333
225277500 -10.11934 -127.97372 -1.4117796 -35.146835 -1.4034247 -35.078197 -14.170978 -77.281662
240276000 -10.150946 -131.58934 -1.4274997 -37.597076 -1.4392794 -37.625221 -13.863911 -82.077568
255274500 -9.973608 -136.67407 -1.4081244 -40.064999 -1.4153982 -40.002357 -13.758799 -87.304344
270273000 -9.661684 -141.21196 -1.3136328 -42.528683 -1.3245904 -42.504807 -13.778229 -92.102692
285271500 -9.9173527 -141.36328 -1.3485314 -45.124657 -1.358735 -44.928074 -13.661386 -96.324135
300270000 -9.905261 -148.44987 -1.318344 -47.529865 -1.3402343 -47.37608 -13.477602 -100.12165
315268500 -9.3949947 -152.73207 -1.2539903 -49.817425 -1.2636217 -49.766396 -13.360315 -103.77087
330267000 -9.5907297 -156.2583 -1.2647064 -52.341297 -1.2562931 -52.244198 -13.399284 -100.7618
345265500 -9.5756474 -159.87866 -1.2410735 -55.02013 -1.2444674 -54.905441 -14.598495 -109.25282
360264000 -9.2928963 -162.42715 -1.2052535 -57.483494 -1.216859 -57.496124 -13.393226 -116.81741
375262500 -9.4198666 -165.60852 -1.2266103 -59.931038 -1.1817864 -59.420658 -14.191808 -123.03764
390261000 -9.38134 -168.81818 -1.2105845 -62.363991 -1.15697 -61.861965 -14.086323 -126.43642
405259500 -9.2795019 -172.02434 -1.1525269 -64.726631 -1.1414809 -64.790222 -13.114151 -126.9111
420258000 -9.7871199 -174.98701 -1.1526605 -67.380821 -1.162528 -67.371849 -13.146178 -130.72763
435256500 -9.7051945 -179.76816 -1.1180881 -69.926704 -1.1319829 -69.886986 -13.144569 -134.59718
450255000 -9.4621239 179.17062 -1.0652916 -72.440048 -1.059975 -72.411247 -12.933043 -138.2874
465253500 -9.7125692 176.28526 -1.073637 -75.090385 -1.0656844 -75.115929 -12.867724 -142.80826
480252000 -9.7765522 173.17203 -1.0524232 -77.626152 -1.0570917 -77.62413 -12.905066 -146.1786
495250500 -9.7527037 170.78877 -0.98762304 -80.224251 -0.98459971 -80.15461 -13.085487 -149.84148
510249000 -10.371693 167.47552 -0.99479496 -82.801407 -1.0085095 -83.235298 -13.123836 -148.37427
525247500 -10.227302 162.98245 -0.96096039 -85.380272 -0.99425888 -85.928444 -13.262058 -152.11336
540246000 -10.148623 162.51929 -0.93379056 -88.062706 -0.93706524 -88.019882 -13.434256 -160.59364
555244500 -10.521791 158.83633 -0.95495445 -90.541245 -0.95393407 -90.570648 -13.653615 -163.68645
570243000 -10.685618 155.86293 -0.91070163 -93.163063 -0.90512687 -93.143105 -13.780743 -167.4279
585241500 -10.824492 153.79286 -0.83595073 -95.863037 -0.82906783 -95.773499 -13.824736 -170.27106
600240000 -11.626468 148.29787 -0.80986077 -99.187477 -0.80305767 -98.775909 -14.127184 -169.07903
615238500 -11.327563 144.08977 -0.76571637 -101.92097 -0.78397185 -101.54622 -14.378857 -172.02274
630237000 -11.632097 145.69572 -0.73281062 -103.94 -0.74508184 -103.94895 -14.352328 178.92899
645235500 -12.403877 140.33202 -0.77586484 -105.89384 -0.77106261 -106.77891 -13.978318 174.15433
660234000 -12.431414 137.41818 -0.7432673 -108.71413 -0.73376131 -109.56738 -14.417813 170.23073
675232500 -12.839704 137.1915 -0.67092437 -112.28337 -0.6645996 -112.31946 -15.419487 167.89372
690231000 -13.481672 132.00322 -0.67117482 -115.11346 -0.67154038 -115.09329 -16.302883 164.34694
705229500 -13.808464 128.9492 -0.64687437 -117.88184 -0.65186208 -118.07882 -16.806593 161.68102
720228000 -14.533029 127.29487 -0.58633208 -120.67678 -0.59568167 -120.74385 -17.137245 157.99387
735226500 -15.428908 122.34568 -0.58432615 -123.53628 -0.59424812 -123.63156 -17.443434 155.85379
750225000 -16.112368 118.79393 -0.55531007 -126.45948 -0.56170267 -126.50475 -18.224417 151.55762
765223500 -17.020206 116.58646 -0.49966586 -129.45865 -0.51407552 -129.45644 -19.424751 146.84988
780222000 -18.186218 110.64062 -0.46334106 -132.57967 -0.52787369 -132.45161 -20.623985 142.04868
795220500 -19.41474 106.03029 -0.46306056 -135.6395 -0.50758475 -135.54521 -21.868429 137.05907
810219000 -21.405855 101.50661 -0.44796357 -138.60374 -0.45779133 -138.55077 -23.485847 132.63251
825217500 -23.500483 82.363815 -0.47757274 -141.50717 -0.49475932 -141.7505 -23.947458 142.862
840216000 -24.513929 76.115639 -0.47867841 -144.54352 -0.4828915 -144.93828 -26.832415 141.06384
855214500 -29.897144 61.010159 -0.44713885 -147.81657 -0.44541445 -147.86256 -35.683117 91.794594
870213000 -30.954672 12.148148 -0.46571168 -151.13084 -0.46492019 -150.85846 -39.863266 20.377184
885211500 -28.873056 -27.953068 -0.47510323 -154.18684 -0.47490829 -154.05376 -31.904053 -36.198395
900210000 -25.188099 -54.817383 -0.46669877 -157.40642 -0.46701726 -157.37189 -27.065977 -46.274422
915208500 -21.901754 -59.88662 -0.48654753 -160.4621 -0.51957929 -160.74472 -23.855848 -59.326237
930207000 -20.576696 -70.379776 -0.50454855 -163.76547 -0.54201788 -164.05228 -21.483421 -65.93998
945205500 -17.955915 -78.844025 -0.53923565 -167.31088 -0.53599596 -167.22917 -19.369869 -67.103874
960204000 -16.384764 -82.096542 -0.63286877 -170.73915 -0.61472952 -170.41486 -17.796711 -70.338463
975202500 -15.319057 -88.200928 -0.68111569 -173.97189 -0.65915644 -173.73573 -16.295921 -74.052773
990201000 -13.760402 -92.578087 -0.68197972 -177.17427 -0.6816051 -177.21648 -15.07257 -79.48127
1005199500 -12.933744 -96.339027 -0.75530076 179.50803 -0.78089982 179.51147 -13.889981 -82.062698
1020198000 -11.984068 -100.46224 -0.80841804 176.24008 -0.8498047 176.00218 -12.889762 -85.771202
1035196500 -10.871937 -104.30845 -0.89117599 172.79968 -0.89281404 172.75861 -11.993288 -91.118378
1050195000 -10.424013 -106.25454 -1.0350487 169.29907 -0.94513732 169.05388 -11.680878 -90.857841
1065193500 -9.8346367 -110.99692 -1.1503109 165.99574 -1.0500735 165.60596 -10.911716 -95.106842
1080192000 -8.7311678 -114.64134 -1.1890857 162.67921 -1.1982961 162.6953 -9.8021202 -102.56343
1095190500 -8.2810116 -117.83735 -1.3051984 159.42574 -1.35956 159.41937 -9.1535282 -106.52829
1110189000 -7.6890845 -121.58494 -1.413078 156.14088 -1.4757643 156.09036 -8.5544119 -110.26353
1125187500 -7.0707831 -124.95685 -1.5541929 152.89937 -1.5657278 152.78551 -8.0359516 -113.31563
1140186000 -6.878859 -127.54788 -1.7305921 149.61409 -1.7456697 149.4897 -7.5234203 -117.15455
1155184500 -6.4182162 -132.00388 -1.879243 146.43869 -1.8693321 146.36041 -7.0589323 -120.59452
1170183000 -5.7788396 -134.56256 -2.0143006 143.17368 -1.9896587 143.11574 -6.6360288 -123.78016
1185181500 -5.3093491 -138.95851 -2.2259467 140.80936 -2.1826839 140.00845 -6.2366142 -126.56963
1200180000 -4.9426847 -142.27637 -2.4042745 137.51241 -2.3413928 136.89148 -5.9018192 -130.07753
1215178500 -4.7280207 -143.68727 -2.5210083 133.76695 -2.5226998 133.82111 -5.5191851 -133.9411
1230177000 -4.6008196 -146.62419 -2.7221966 130.61182 -2.6088707 130.45815 -5.4929709 -136.72803
1245175500 -4.3008542 -149.29674 -2.9223919 127.66072 -2.79281 127.35582 -5.2101741 -140.16074
1260174000 -3.917078 -152.58357 -3.0760133 124.77094 -3.0646908 124.85753 -4.6126742 -143.57748
1275172500 -3.7109063 -155.36896 -3.2862332 121.79513 -3.4144576 122.04073 -4.2585449 -146.681
1290171000 -3.4504118 -158.44397 -3.4910226 119.00475 -3.6153028 119.31136 -4.0180907 -149.88803
1305169500 -3.2555163 -160.88927 -3.6611419 116.30696 -3.6762648 116.39055 -3.896137 -152.63084
1320168000 -3.149087 -163.78717 -3.8999462 113.59451 -3.8330095 113.72467 -3.7559361 -155.82961
1335166500 -2.9505115 -166.44899 -4.0929751 110.86108 -4.0100679 111.09753 -3.5342269 -158.07654
1350165000 -2.7211418 -168.6414 -4.2766004 108.13074 -4.263474 108.21809 -3.3037534 -161.20274
1365163500 -2.7114124 -171.72916 -4.4942646 105.69575 -4.8220544 105.63119 -3.5541809 -162.51129
1380162000 -2.4507961 -174.56311 -4.7003822 102.96258 -5.0495229 103.18928 -3.4287412 -167.18126
1395160500 -2.3107288 -176.14468 -4.9300652 100.49376 -4.9108829 100.45151 -2.8052337 -169.47429
1410159000 -2.2430027 -178.88423 -5.1422634 97.993912 -5.1184583 98.146973 -2.7201045 -171.87215
1425157500 -2.0666358 178.95955 -5.3388109 95.738045 -5.3196177 95.491814 -2.5979133 -174.49147
1440156000 -1.9520305 176.91907 -5.5339074 93.329651 -5.5396256 93.253014 -2.4002259 -177.00786
1455154500 -1.8962711 174.69212 -5.7561989 90.955742 -5.9329491 90.697899 -2.28915 -179.54306
1470153000 -1.8032926 172.40869 -5.968946 88.404701 -6.1727319 88.604744 -2.1888072 177.96803
1485151500 -1.7064307 170.16928 -6.2050681 86.271225 -6.2020268 86.391457 -2.0780735 175.73404
1500150000 -1.6781756 167.56862 -6.468493 84.00193 -6.4372039 84.037422 -2.0171216 173.43607
1515148500 -1.5813175 165.79771 -6.6911554 82.049141 -6.6269383 81.982681 -1.9188106 171.1608
1530147000 -1.4797033 163.99129 -6.8010964 79.891914 -6.790904 79.822647 -1.8063128 168.94128
1545145500 -1.451728 161.92976 -7.0207133 77.868202 -7.1312079 77.740898 -1.7448878 166.91637
1560144000 -1.382257 159.91074 -7.2090259 75.825752 -7.3243155 75.895035 -1.6517707 164.78894
1575142500 -1.2911057 157.92003 -7.4104114 73.516106 -7.4113922 73.482834 -1.5781754 162.40712
1590141000 -1.3064935 155.55191 -7.6458836 71.469139 -7.7603021 71.726814 -1.9490455 159.96501
1605139500 -1.2643946 153.83357 -7.8428621 69.437248 -7.9499331 69.837029 -1.697354 156.83844
1620138000 -1.1432495 152.23022 -8.017478 67.561378 -8.0270815 67.662605 -1.3830169 156.18112
1635136500 -1.1514169 149.99803 -8.3954916 68.02182 -8.265193 65.745903 -1.3109043 154.42191
1650135000 -1.0792917 148.30322 -8.5895109 66.205803 -8.4539738 63.871689 -1.2513676 152.21881
1665133500 -1.0263702 146.66695 -8.6013165 61.987656 -8.5731335 61.9631 -1.2102873 150.35649
1680132000 -1.0901332 145.02983 -8.7314892 59.964806 -8.7601833 60.188366 -1.253406 148.24689
1695130500 -1.0610602 143.27309 -8.9397745 58.073437 -8.9284248 58.089092 -1.2131128 146.27603
1710129000 -0.93047154 141.41533 -9.1147881 56.427624 -9.1468811 56.525135 -1.0785211 144.75639
1725127500 -1.0709018 141.4184 -9.4480505 56.124603 -9.3709621 54.460033 -1.0640649 142.77071
1740126000 -1.0379301 139.75073 -9.636385 54.519199 -9.5597143 52.693775 -1.0224391 140.89417
1755124500 -0.84883863 136.44547 -9.6689177 51.187027 -9.6484489 51.270248 -0.95111716 139.40771
1770123000 -0.88292849 134.71008 -9.8617592 49.356899 -9.6689701 48.801701 -0.79349619 136.61702
1785121500 -0.87511671 133.10074 -10.022651 47.706387 -9.8249159 46.927074 -0.76074308 134.70738
1800120000 -0.7844615 131.56993 -10.170798 45.99773 -10.144307 46.094326 -0.84338826 133.9901
1815118500 -0.84429431 130.15092 -10.398274 45.215061 -10.485161 44.148109 -0.87442583 132.49538
1830117000 -0.84476942 128.75629 -10.500034 43.554836 -10.653344 43.04026 -0.83896273 130.95454
1845115500 -0.71444958 126.87177 -10.612568 41.24398 -10.622005 41.179066 -0.74547243 128.92957
1860114000 -0.71305925 125.12483 -10.932942 41.716438 -10.725067 40.296551 -0.70133495 127.71584
1875112500 -0.69882339 123.67129 -11.078135 39.996391 -10.807234 38.242432 -0.6905058 125.93124
1890111000 -0.66023731 122.21249 -11.086474 36.139828 -11.062383 36.30349 -0.68586308 124.13013
1905109500 -0.9348768 120.95309 -11.481185 34.616421 -11.27521 34.187801 -0.69935215 122.01014
1920108000 -0.95840812 119.81917 -11.651085 32.774239 -11.449977 32.795929 -0.64178377 120.50237
1935106500 -0.636127 117.7872 -11.553586 31.564354 -11.525455 31.483143 -0.59595394 119.47846
1950105000 -0.62260044 116.47092 -11.736864 30.014692 -11.689522 30.374681 -0.63167912 117.52968
1965103500 -0.60344553 115.0111 -11.89469 28.452414 -11.778539 28.842382 -0.60730749 115.86412
1980102000 -0.57841361 113.36482 -11.933099 26.963543 -11.9257 27.169367 -0.54256779 114.76542
1995100500 -0.60177779 112.11455 -12.112771 25.438778 -11.860313 24.252502 -0.33903068 112.17031
2010099000 -0.5957728 110.51487 -12.238325 23.938517 -12.012147 22.886562 -0.3117204 110.78808
2025097500 -0.56783849 109.07157 -12.318861 22.428141 -12.291366 22.515656 -0.51156014 110.34535
2040096000 -0.54878241 107.93237 -12.475346 21.555265 -12.461834 21.478851 -0.49929732 109.17187
2055094500 -0.603414 106.74859 -12.54144 19.833319 -12.527038 19.766634 -0.46989319 107.58574
2070093000 -0.52371371 104.86602 -12.682496 17.823006 -12.651512 17.814199 -0.46070376 105.8924
2085091500 -0.58210832 103.45676 -12.849104 16.22859 -12.774292 15.846652 -0.42541915 104.84401
2100090000 -0.6103875 102.08946 -12.971658 14.897554 -12.904554 14.331903 -0.40261996 103.28465
2115088500 -0.51345116 100.8298 -13.047336 13.560448 -13.043432 13.680346 -0.40961555 101.61124
2130087000 -0.54578364 99.898643 -13.100403 12.317609 -13.201339 12.23696 -0.42619208 99.707069
2145085500 -0.57043189 98.560051 -13.196539 10.521872 -13.291153 11.045567 -0.41260457 98.313721
2160084000 -0.49256268 96.783188 -13.329484 9.2594528 -13.332655 9.2397585 -0.38722777 97.5336
2175082500 -0.52385008 95.728256 -13.491573 7.297184 -13.399899 7.5572681 -0.42574179 95.886009
2190081000 -0.54358685 94.41272 -13.649421 5.9963269 -13.560989 5.7775593 -0.39976326 94.395935
2205079500 -0.4721944 92.857216 -13.65387 4.6139698 -13.674536 4.7556553 -0.36414599 93.44828
2220078000 -0.44307637 92.385963 -13.837023 3.1369238 -13.875255 3.3609385 -0.42253998 91.615997
2235076500 -0.59555757 91.06913 -13.90254 1.9009355 -13.974694 2.2062604 -0.399885 90.399841
2250075000 -0.46348566 88.925529 -13.974909 0.68784142 -13.963017 0.7708506 -0.33656034 89.207314
2265073500 -0.47184205 87.986954 -14.046901 -0.25872681 -14.056614 -1.0630666 -0.36545771 87.494453
2280072000 -0.53497076 86.465172 -14.12343 -1.7277865 -14.173058 -2.4637978 -0.37179971 86.251305
2295070500 -0.45324042 85.014801 -14.208344 -3.2367599 -14.229368 -3.326587 -0.31052074 85.10675
2310069000 -0.53914863 83.780701 -14.367589 -4.7038999 -14.340492 -4.5770826 -0.31792027 84.01004
2325067500 -0.52420259 82.503708 -14.434844 -5.8029671 -14.418563 -5.9278979 -0.30745858 82.731743
2340066000 -0.44672796 81.176842 -14.468362 -7.5276575 -14.450121 -7.6586657 -0.30163291 81.209991
2355064500 -0.50341481 80.20742 -14.525215 -9.2627707 -14.543381 -9.1339417 -0.31788072 80.150787
2370063000 -0.52766031 78.91674 -14.649403 -10.557492 -14.655795 -10.737446 -0.34630042 78.757668
2385061500 -0.44302878 77.414482 -14.714555 -11.922905 -14.733975 -11.808558 -0.30758944 77.205544
2400060000 -0.52175927 76.39225 -14.837684 -13.236111 -14.837237 -13.317601 -0.33507502 75.927956
2415058500 -0.54725736 75.029205 -14.905291 -14.259533 -14.908795 -14.248324 -0.32038364 74.558495
2430057000 -0.43139765 73.544014 -14.921548 -15.537932 -14.913015 -15.855459 -0.29153451 73.296043
2445055500 -0.54071569 73.073143 -15.018805 -17.302088 -14.999727 -17.09156 -0.32773358 71.568665
2460054000 -0.58060265 71.312698 -15.069262 -18.760527 -15.053151 -18.443914 -0.31205693 70.289894
2475052500 -0.43945932 69.807793 -15.08884 -19.949522 -15.091521 -19.876637 -0.3070699 69.449722
2490051000 -0.54373825 68.857742 -15.210361 -21.284191 -15.250031 -21.365606 -0.34420335 68.295753
2505049500 -0.56721902 67.36042 -15.271171 -22.530075 -15.251169 -22.919239 -0.32647228 67.143539
2520048000 -0.42696169 66.138168 -15.32765 -24.101404 -15.368217 -24.023993 -0.30030566 65.59449
2535046500 -0.56025255 66.36924 -15.402616 -25.188734 -15.424628 -25.351446 -0.29719388 64.472946
2550045000 -0.65480322 63.966595 -15.443025 -26.638622 -15.452268 -26.508226 -0.29954875 63.1259
2565043500 -0.43131873 62.46669 -15.519333 -27.67952 -15.503617 -27.578053 -0.28640366 61.750565
2580042000 -0.56771135 61.419788 -15.509091 -29.363585 -15.561862 -29.060181 -0.30021775 60.247692
2595040500 -0.61310065 59.588448 -15.602661 -30.627573 -15.58622 -30.480171 -0.30140153 58.851185
2610039000 -0.42201391 58.673573 -15.620126 -31.785652 -15.612185 -31.873075 -0.29435304 57.676453
2625037500 -0.53845787 57.299843 -15.709458 -33.471664 -15.563584 -27.614281 -0.33575344 56.49313
2640036000 -0.5240227 56.125134 -15.718279 -35.119526 -15.64598 -28.620958 -0.32329151 55.084484
2655034500 -0.44798538 55.034622 -15.769871 -36.141487 -15.792269 -35.812263 -0.3220067 53.997498
2670033000 -0.56708366 54.138725 -15.900376 -37.329288 -15.723952 -42.768597 -0.32863393 52.746517
2685031500 -0.57326937 52.831196 -15.926914 -38.727245 -15.813268 -43.730537 -0.30726185 51.412239
2700030000 -0.45368007 51.459526 -15.923202 -40.147682 -15.896878 -40.208862 -0.31868044 50.081528
2715028500 -0.60660321 50.388798 -15.989657 -41.186672 -16.200562 -37.222416 -0.31393954 48.693039
2730027000 -0.58782852 48.838074 -15.994273 -42.455898 -16.266884 -38.056683 -0.32930437 47.341522
2745025500 -0.43058008 47.80386 -16.057428 -43.98254 -16.022041 -43.885216 -0.34800974 46.116993
2760024000 -0.65683019 47.10656 -16.049644 -45.544994 -15.709822 -48.797909 -0.37047508 44.936565
2775022500 -0.67634356 45.016987 -16.106737 -46.807491 -15.759836 -50.3493 -0.37024647 43.611801
2790021000 -0.44873017 44.15097 -16.140413 -48.17794 -16.105669 -48.035694 -0.35959175 42.254322
2805019500 -0.65118957 42.983845 -16.234951 -49.696579 -16.603762 -46.658485 -0.36504745 40.92226
2820018000 -0.64998168 41.420063 -16.292711 -50.379726 -16.614227 -47.729061 -0.34405625 39.77869
2835016500 -0.44260225 40.32325 -16.296022 -51.853394 -16.265896 -51.629795 -0.37534726 38.598694
2850015000 -0.7304967 40.211624 -16.302534 -52.709805 -15.907015 -54.459614 -0.3973574 37.54533
2865013500 -0.71075612 37.038864 -16.277363 -53.918365 -15.903445 -55.551571 -0.4061496 36.171116
2880012000 -0.44001156 36.850479 -16.2719 -55.058319 -16.252491 -55.090603 -0.37813008 34.599583
2895010500 -0.708031 35.668247 -16.256292 -56.503281 -16.681776 -55.666603 -0.40967613 32.896709
2910009000 -0.6225813 33.244663 -16.25918 -57.857052 -16.636307 -56.768227 -0.39939287 31.644981
2925007500 -0.43139821 33.054504 -16.285309 -59.424431 -16.28661 -59.388367 -0.41694608 30.521076
2940006000 -0.5479545 31.597897 -16.328007 -60.669346 -16.014139 -60.520195 -0.40009844 29.231577
2955004500 -0.53466481 30.40361 -16.326992 -61.885483 -16.018213 -62.395836 -0.39748222 28.042307
2970003000 -0.45674157 29.371576 -16.35775 -63.31311 -16.343868 -63.01672 -0.45209411 26.700207
2985001500 -0.62229782 28.073309 -16.725128 -62.655785 -16.588787 -64.248726 -0.46904987 25.458683
3000000000 -0.6050297 26.490984 -16.737467 -64.489037 -16.515585 -65.352066 -0.49234003 23.99931
